date Fri Sep 25 01:59:45 PM 2015
base hex  timestamps absolute
Logged using Clover
   0.0000 Start of measurement
1874.0521 1  7D0       Tx   d 8 0D BC 8D 04 50 BC 8F 04
1874.0523 1  7D4       Rx   d 8 FF 00 BC 81 00 00 00 00
1875.1522 1  7D0       Tx   d 8 0D BD 8D 04 50 BC 8F 04
1875.1524 1  7D4       Rx   d 8 FF 00 BD 81 00 00 00 00
1876.2520 1  7D0       Tx   d 8 0D BE 8D 04 50 BC 8F 04
1876.2523 1  7D4       Rx   d 8 FF 00 BE 81 00 00 00 00
1877.3522 1  7D0       Tx   d 8 0D BF 8D 04 50 BC 8F 04
1877.3524 1  7D4       Rx   d 8 FF 00 BF 81 00 00 00 00
1878.4522 1  7D0       Tx   d 8 0D C0 8D 04 50 BC 8F 04
1878.4525 1  7D4       Rx   d 8 FF 00 C0 81 00 00 00 00
1879.5523 1  7D0       Tx   d 8 0D C1 8D 04 50 BC 8F 04
1879.5525 1  7D4       Rx   d 8 FF 00 C1 81 00 00 00 00
1880.6522 1  7D0       Tx   d 8 0D C2 8D 04 50 BC 8F 04
1880.6524 1  7D4       Rx   d 8 FF 00 C2 81 00 00 00 00
1881.7522 1  7D0       Tx   d 8 0D C3 8D 04 50 BC 8F 04
1881.7524 1  7D4       Rx   d 8 FF 00 C3 81 00 00 00 00
1882.8523 1  7D0       Tx   d 8 0D C4 8D 04 50 BC 8F 04
1882.8525 1  7D4       Rx   d 8 FF 00 C4 81 00 00 00 00
1884.1536 1  7D0       Tx   d 8 0D C5 8D 04 50 BC 8F 04
1884.1538 1  7D4       Rx   d 8 FF 00 C5 81 00 00 00 00
1885.2524 1  7D0       Tx   d 8 0D C6 8D 04 50 BC 8F 04
1885.2526 1  7D4       Rx   d 8 FF 00 C6 81 00 00 00 00
1886.3524 1  7D0       Tx   d 8 0D C7 8D 04 50 BC 8F 04
1886.3527 1  7D4       Rx   d 8 FF 00 C7 81 00 00 00 00
1887.4523 1  7D0       Tx   d 8 0D C8 8D 04 50 BC 8F 04
1887.4526 1  7D4       Rx   d 8 FF 00 C8 81 00 00 00 00
1887.7579 1  7D0       Tx   d 8 07 C9 01 00 00 20 C8 56
1887.7581 1  7D4       Rx   d 8 FF 31 C9 00 00 00 00 00
1888.9026 1  7D0       Tx   d 8 01 00 00 20 00 00 D9 53
1888.9030 1  7D4       Rx   d 8 FF 00 00 00 00 00 00 00
1888.9047 1  7D0       Tx   d 8 1B 01 02 01 7C FB 67 04
1888.9049 1  7D4       Rx   d 8 FF 00 01 02 01 00 00 00
1888.9066 1  7D0       Tx   d 8 17 02 49 6E 63 61 4D 43
1888.9069 1  7D4       Rx   d 8 FF 00 02 24 00 43 00 00
1888.9087 1  7D0       Tx   d 8 04 03 05 04 10 FB 67 04
1888.9090 1  7D4       Rx   d 8 FF 00 03 02 00 00 00 00
1888.9107 1  7D0       Tx   d 8 04 04 05 04 10 FB 67 04
1888.9109 1  7D4       Rx   d 8 FF 00 04 00 00 00 00 00
1888.9128 1  7D0       Tx   d 8 04 05 05 04 10 FB 67 04
1888.9130 1  7D4       Rx   d 8 FF 00 05 00 00 00 00 EF
1888.9147 1  7D0       Tx   d 8 04 06 05 04 10 FB 67 04
1888.9150 1  7D4       Rx   d 8 FF 00 06 BE AD DE 00 00
1888.9166 1  7D0       Tx   d 8 04 07 05 04 10 FB 67 04
1888.9169 1  7D4       Rx   d 8 FF 00 07 00 00 00 00 00
1888.9186 1  7D0       Tx   d 8 04 08 05 04 10 FB 67 04
1888.9189 1  7D4       Rx   d 8 FF 00 08 00 00 00 00 00
1888.9206 1  7D0       Tx   d 8 04 09 05 04 10 FB 67 04
1888.9209 1  7D4       Rx   d 8 FF 00 09 00 00 00 00 00
1888.9227 1  7D0       Tx   d 8 04 0A 01 04 10 FB 67 04
1888.9230 1  7D4       Rx   d 8 FF 00 0A 00 00 00 00 00
1888.9297 1  7D0       Tx   d 8 0D 0B 8D 04 50 BC 8F 04
1888.9300 1  7D4       Rx   d 8 FF 00 0B 81 00 00 00 00
1888.9327 1  7D0       Tx   d 8 0D 0C 8D 04 50 BC 8F 04
1888.9329 1  7D4       Rx   d 8 FF 00 0C 81 00 00 00 00
1889.9698 1  7D0       Tx   d 8 02 0D 00 00 00 06 00 00
1889.9701 1  7D4       Rx   d 8 FF 00 0D 00 00 00 00 00
1889.9720 1  7D0       Tx   d 8 11 0E 67 04 7D E5 88 04
1889.9723 1  7D4       Rx   d 8 FF 00 0E 00 00 00 00 00
1890.3426 1  7D0       Tx   d 8 02 0F 00 00 00 02 00 04
1890.3428 1  7D4       Rx   d 8 FF 00 0F 00 00 00 00 00
1890.3443 1  7D0       Tx   d 8 0E 10 00 00 40 00 E5 01
1890.3496 1  7D4       Rx   d 8 FF 00 10 02 A9 80 00 00
1890.3532 1  7D0       Tx   d 8 02 11 00 00 00 02 40 04
1890.3535 1  7D4       Rx   d 8 FF 00 11 00 00 00 00 00
1890.3544 1  7D0       Tx   d 8 0E 12 00 00 40 00 E5 01
1890.3596 1  7D4       Rx   d 8 FF 00 12 02 2A 0A 00 00
1890.3613 1  7D0       Tx   d 8 02 13 00 00 00 02 80 04
1890.3616 1  7D4       Rx   d 8 FF 00 13 00 00 00 00 00
1890.3623 1  7D0       Tx   d 8 0E 14 00 00 40 00 E5 01
1890.3681 1  7D4       Rx   d 8 FF 00 14 02 9B 27 00 00
1890.3725 1  7D0       Tx   d 8 02 15 00 00 00 02 C0 04
1890.3727 1  7D4       Rx   d 8 FF 00 15 00 00 00 00 00
1890.3743 1  7D0       Tx   d 8 0E 16 00 00 40 00 E5 01
1890.3777 1  7D4       Rx   d 8 FF 00 16 02 EC E9 00 00
1890.3823 1  7D0       Tx   d 8 02 17 00 00 00 03 00 04
1890.3825 1  7D4       Rx   d 8 FF 00 17 00 00 00 00 00
1890.3833 1  7D0       Tx   d 8 0E 18 00 00 40 00 E5 01
1890.3884 1  7D4       Rx   d 8 FF 00 18 02 27 A7 00 00
1890.3907 1  7D0       Tx   d 8 02 19 00 00 00 03 40 04
1890.3910 1  7D4       Rx   d 8 FF 00 19 00 00 00 00 00
1890.3924 1  7D0       Tx   d 8 0E 1A 00 00 40 00 E5 01
1890.3982 1  7D4       Rx   d 8 FF 00 1A 02 A1 76 00 00
1890.4037 1  7D0       Tx   d 8 02 1B 00 00 00 03 80 04
1890.4039 1  7D4       Rx   d 8 FF 00 1B 00 00 00 00 00
1890.4052 1  7D0       Tx   d 8 0E 1C 00 00 40 00 E5 01
1890.4088 1  7D4       Rx   d 8 FF 00 1C 02 2B AB 00 00
1890.4113 1  7D0       Tx   d 8 02 1D 00 00 00 03 C0 04
1890.4116 1  7D4       Rx   d 8 FF 00 1D 00 00 00 00 00
1890.4134 1  7D0       Tx   d 8 0E 1E 00 00 3F F8 E5 01
1890.4167 1  7D4       Rx   d 8 FF 00 1E 02 26 EF 00 00
1890.4200 1  7D0       Tx   d 8 02 1F 00 00 00 06 00 04
1890.4203 1  7D4       Rx   d 8 FF 00 1F 00 00 00 00 00
1890.4212 1  7D0       Tx   d 8 0E 20 00 00 40 00 E5 01
1890.4246 1  7D4       Rx   d 8 FF 00 20 02 E5 B2 00 00
1890.4277 1  7D0       Tx   d 8 02 21 00 00 00 06 40 04
1890.4280 1  7D4       Rx   d 8 FF 00 21 00 00 00 00 00
1890.4293 1  7D0       Tx   d 8 0E 22 00 00 40 00 E5 01
1890.4345 1  7D4       Rx   d 8 FF 00 22 02 0B C7 00 00
1890.4383 1  7D0       Tx   d 8 02 23 00 00 00 06 80 04
1890.4386 1  7D4       Rx   d 8 FF 00 23 00 00 00 00 00
1890.4402 1  7D0       Tx   d 8 0E 24 00 00 40 00 E5 01
1890.4461 1  7D4       Rx   d 8 FF 00 24 02 C0 00 00 00
1890.4496 1  7D0       Tx   d 8 02 25 00 00 00 06 C0 04
1890.4499 1  7D4       Rx   d 8 FF 00 25 00 00 00 00 00
1890.4512 1  7D0       Tx   d 8 0E 26 00 00 40 00 E5 01
1890.4550 1  7D4       Rx   d 8 FF 00 26 02 C0 00 00 00
1890.4579 1  7D0       Tx   d 8 02 27 00 00 00 07 00 04
1890.4582 1  7D4       Rx   d 8 FF 00 27 00 00 00 00 00
1890.4592 1  7D0       Tx   d 8 0E 28 00 00 40 00 E5 01
1890.4630 1  7D4       Rx   d 8 FF 00 28 02 C0 00 00 00
1890.4658 1  7D0       Tx   d 8 02 29 00 00 00 07 40 04
1890.4661 1  7D4       Rx   d 8 FF 00 29 00 00 00 00 00
1890.4673 1  7D0       Tx   d 8 0E 2A 00 00 40 00 E5 01
1890.4711 1  7D4       Rx   d 8 FF 00 2A 02 C0 00 00 00
1890.4746 1  7D0       Tx   d 8 02 2B 00 00 00 07 80 04
1890.4749 1  7D4       Rx   d 8 FF 00 2B 00 00 00 00 00
1890.4761 1  7D0       Tx   d 8 0E 2C 00 00 40 00 E5 01
1890.4794 1  7D4       Rx   d 8 FF 00 2C 02 C0 00 00 00
1890.4833 1  7D0       Tx   d 8 02 2D 00 00 00 07 C0 04
1890.4836 1  7D4       Rx   d 8 FF 00 2D 00 00 00 00 00
1890.4850 1  7D0       Tx   d 8 0E 2E 00 00 3F F8 E5 01
1890.4903 1  7D4       Rx   d 8 FF 00 2E 02 B8 08 00 00
1891.2720 1  7D0       Tx   d 8 02 2F 00 00 40 01 00 00
1891.2723 1  7D4       Rx   d 8 FF 00 2F 00 00 00 00 00
1891.2754 1  7D0       Tx   d 8 11 30 67 04 7D E5 88 04
1891.2757 1  7D4       Rx   d 8 FF 00 30 00 00 00 00 00
1891.6200 1  7D0       Tx   d 8 02 31 00 00 00 02 00 04
1891.6202 1  7D4       Rx   d 8 FF 00 31 00 00 00 00 00
1891.6219 1  7D0       Tx   d 8 0E 32 00 00 40 00 E5 01
1891.6256 1  7D4       Rx   d 8 FF 00 32 02 A9 80 00 00
1891.6296 1  7D0       Tx   d 8 02 33 00 00 00 02 40 04
1891.6299 1  7D4       Rx   d 8 FF 00 33 00 00 00 00 00
1891.6307 1  7D0       Tx   d 8 0E 34 00 00 40 00 E5 01
1891.6346 1  7D4       Rx   d 8 FF 00 34 02 2A 0A 00 00
1891.6369 1  7D0       Tx   d 8 02 35 00 00 00 02 80 04
1891.6372 1  7D4       Rx   d 8 FF 00 35 00 00 00 00 00
1891.6388 1  7D0       Tx   d 8 0E 36 00 00 40 00 E5 01
1891.6426 1  7D4       Rx   d 8 FF 00 36 02 9B 27 00 00
1891.6450 1  7D0       Tx   d 8 02 37 00 00 00 02 C0 04
1891.6453 1  7D4       Rx   d 8 FF 00 37 00 00 00 00 00
1891.6468 1  7D0       Tx   d 8 0E 38 00 00 40 00 E5 01
1891.6507 1  7D4       Rx   d 8 FF 00 38 02 EC E9 00 00
1891.6532 1  7D0       Tx   d 8 02 39 00 00 00 03 00 04
1891.6534 1  7D4       Rx   d 8 FF 00 39 00 00 00 00 00
1891.6548 1  7D0       Tx   d 8 0E 3A 00 00 40 00 E5 01
1891.6585 1  7D4       Rx   d 8 FF 00 3A 02 27 A7 00 00
1891.6645 1  7D0       Tx   d 8 02 3B 00 00 00 03 40 04
1891.6648 1  7D4       Rx   d 8 FF 00 3B 00 00 00 00 00
1891.6658 1  7D0       Tx   d 8 0E 3C 00 00 40 00 E5 01
1891.6708 1  7D4       Rx   d 8 FF 00 3C 02 A1 76 00 00
1891.6729 1  7D0       Tx   d 8 02 3D 00 00 00 03 80 04
1891.6731 1  7D4       Rx   d 8 FF 00 3D 00 00 00 00 00
1891.6746 1  7D0       Tx   d 8 0E 3E 00 00 40 00 E5 01
1891.6802 1  7D4       Rx   d 8 FF 00 3E 02 2B AB 00 00
1891.6827 1  7D0       Tx   d 8 02 3F 00 00 00 03 C0 04
1891.6830 1  7D4       Rx   d 8 FF 00 3F 00 00 00 00 00
1891.6847 1  7D0       Tx   d 8 0E 40 00 00 3F F8 E5 01
1891.6884 1  7D4       Rx   d 8 FF 00 40 02 26 EF 00 00
1891.6920 1  7D0       Tx   d 8 02 41 00 00 00 06 00 04
1891.6923 1  7D4       Rx   d 8 FF 00 41 00 00 00 00 00
1891.6936 1  7D0       Tx   d 8 0E 42 00 00 40 00 E5 01
1891.6975 1  7D4       Rx   d 8 FF 00 42 02 E3 BF 00 00
1891.7019 1  7D0       Tx   d 8 02 43 00 00 00 06 40 04
1891.7021 1  7D4       Rx   d 8 FF 00 43 00 00 00 00 00
1891.7037 1  7D0       Tx   d 8 0E 44 00 00 40 00 E5 01
1891.7089 1  7D4       Rx   d 8 FF 00 44 02 0B F7 00 00
1891.7154 1  7D0       Tx   d 8 02 45 00 00 00 06 80 04
1891.7156 1  7D4       Rx   d 8 FF 00 45 00 00 00 00 00
1891.7167 1  7D0       Tx   d 8 0E 46 00 00 40 00 E5 01
1891.7205 1  7D4       Rx   d 8 FF 00 46 02 C0 00 00 00
1891.7236 1  7D0       Tx   d 8 02 47 00 00 00 06 C0 04
1891.7239 1  7D4       Rx   d 8 FF 00 47 00 00 00 00 00
1891.7257 1  7D0       Tx   d 8 0E 48 00 00 40 00 E5 01
1891.7292 1  7D4       Rx   d 8 FF 00 48 02 C0 00 00 00
1891.7335 1  7D0       Tx   d 8 02 49 00 00 00 07 00 04
1891.7337 1  7D4       Rx   d 8 FF 00 49 00 00 00 00 00
1891.7346 1  7D0       Tx   d 8 0E 4A 00 00 40 00 E5 01
1891.7400 1  7D4       Rx   d 8 FF 00 4A 02 C0 00 00 00
1891.7438 1  7D0       Tx   d 8 02 4B 00 00 00 07 40 04
1891.7440 1  7D4       Rx   d 8 FF 00 4B 00 00 00 00 00
1891.7456 1  7D0       Tx   d 8 0E 4C 00 00 40 00 E5 01
1891.7504 1  7D4       Rx   d 8 FF 00 4C 02 C0 00 00 00
1891.7536 1  7D0       Tx   d 8 02 4D 00 00 00 07 80 04
1891.7539 1  7D4       Rx   d 8 FF 00 4D 00 00 00 00 00
1891.7556 1  7D0       Tx   d 8 0E 4E 00 00 40 00 E5 01
1891.7594 1  7D4       Rx   d 8 FF 00 4E 02 C0 00 00 00
1891.7654 1  7D0       Tx   d 8 02 4F 00 00 00 07 C0 04
1891.7657 1  7D4       Rx   d 8 FF 00 4F 00 00 00 00 00
1891.7666 1  7D0       Tx   d 8 0E 50 00 00 3F F8 E5 01
1891.7718 1  7D4       Rx   d 8 FF 00 50 02 B8 08 00 00
1891.7760 1  7D0       Tx   d 8 02 51 00 00 00 06 00 00
1891.7762 1  7D4       Rx   d 8 FF 00 51 00 00 00 00 00
1891.7775 1  7D0       Tx   d 8 11 52 67 04 7D E5 88 04
1891.7778 1  7D4       Rx   d 8 FF 00 52 00 00 00 00 00
1892.1514 1  7D0       Tx   d 8 02 53 00 00 40 01 00 00
1892.1517 1  7D4       Rx   d 8 FF 00 53 00 00 00 00 00
1892.1527 1  7D0       Tx   d 8 11 54 67 04 7D E5 88 04
1892.1530 1  7D4       Rx   d 8 FF 00 54 00 00 00 00 00
1892.1548 1  7D0       Tx   d 8 0D 55 8D 04 50 BC 8F 04
1892.1550 1  7D4       Rx   d 8 FF 00 55 81 00 00 00 00
1892.1573 1  7D0       Tx   d 8 0D 56 8D 04 50 BC 8F 04
1892.1575 1  7D4       Rx   d 8 FF 00 56 81 00 00 00 00
1892.7737 1  7D0       Tx   d 8 0D 57 8D 04 50 BC 8F 04
1892.7739 1  7D4       Rx   d 8 FF 00 57 81 00 00 00 00
1893.8526 1  7D0       Tx   d 8 0D 58 8D 04 50 BC 8F 04
1893.8529 1  7D4       Rx   d 8 FF 00 58 81 00 00 00 00
1894.8569 1  7D0       Tx   d 8 0D 59 8D 04 50 BC 8F 04
1894.8572 1  7D4       Rx   d 8 FF 00 59 81 00 00 00 00
1906.3170 1  7D0       Tx   d 8 02 5A 00 00 00 06 31 B4
1906.3173 1  7D4       Rx   d 8 FF 00 5A 00 00 00 00 00
1906.3183 1  7D0       Tx   d 8 03 5B 02 00 55 FB 67 04
1906.3186 1  7D4       Rx   d 8 FF 00 5B 00 00 06 31 B6
1910.9693 1  7D0       Tx   d 8 02 5C 00 00 00 06 23 6A
1910.9695 1  7D4       Rx   d 8 FF 00 5C 00 00 00 00 00
1910.9704 1  7D0       Tx   d 8 03 5D 02 00 44 FB 67 04
1910.9707 1  7D4       Rx   d 8 FF 00 5D 00 00 06 23 6C
1917.0886 1  7D0       Tx   d 8 02 5E 00 00 00 06 23 30
1917.0888 1  7D4       Rx   d 8 FF 00 5E 00 00 00 00 00
1917.0902 1  7D0       Tx   d 8 03 5F 02 55 55 FB 67 04
1917.0905 1  7D4       Rx   d 8 FF 00 5F 00 00 06 23 32
1920.4854 1  7D0       Tx   d 8 02 60 00 00 00 06 23 4E
1920.4856 1  7D4       Rx   d 8 FF 00 60 00 00 00 00 00
1920.4867 1  7D0       Tx   d 8 03 61 02 AA AA FB 67 04
1920.4870 1  7D4       Rx   d 8 FF 00 61 00 00 06 23 50
1926.7438 1  7D0       Tx   d 8 02 62 00 00 00 06 00 00
1926.7440 1  7D4       Rx   d 8 FF 00 62 00 00 00 00 00
1926.7459 1  7D0       Tx   d 8 11 63 67 04 7D E5 88 04
1926.7461 1  7D4       Rx   d 8 FF 00 63 00 00 00 00 00
1929.0880 1  7D0       Tx   d 8 02 64 00 00 40 01 00 00
1929.0883 1  7D4       Rx   d 8 FF 00 64 00 00 00 00 00
1929.0897 1  7D0       Tx   d 8 11 65 67 04 7D E5 88 04
1929.0900 1  7D4       Rx   d 8 FF 00 65 00 00 00 00 00
1930.2244 1  7D0       Tx   d 8 02 66 00 00 00 06 00 00
1930.2247 1  7D4       Rx   d 8 FF 00 66 00 00 00 00 00
1930.2265 1  7D0       Tx   d 8 11 67 67 04 7D E5 88 04
1930.2268 1  7D4       Rx   d 8 FF 00 67 00 00 00 00 00
1930.9761 1  7D0       Tx   d 8 02 68 00 00 40 01 00 00
1930.9763 1  7D4       Rx   d 8 FF 00 68 00 00 00 00 00
1930.9776 1  7D0       Tx   d 8 11 69 67 04 7D E5 88 04
1930.9779 1  7D4       Rx   d 8 FF 00 69 00 00 00 00 00
1932.9822 1  7D0       Tx   d 8 0D 6A 8D 04 50 BC 8F 04
1932.9825 1  7D4       Rx   d 8 FF 00 6A 81 00 00 00 00
1933.6000 1  7D0       Tx   d 8 0D 6B 8D 04 50 BC 8F 04
1933.6002 1  7D4       Rx   d 8 FF 00 6B 81 00 00 00 00
1935.1545 1  7D0       Tx   d 8 0D 6C 8D 04 50 BC 8F 04
1935.1548 1  7D4       Rx   d 8 FF 00 6C 81 00 00 00 00
1935.4877 1  7D0       Tx   d 8 0D 6D 8D 04 50 BC 8F 04
1935.4879 1  7D4       Rx   d 8 FF 00 6D 81 00 00 00 00
